string(71) "Greicodex\ServiceBuz\Processors\Producers\HttpServer\HttpServerListener"
string(23) "Listening on port 12345"
string(50) "http-client://google.com?httpMethod=POST connected"
string(65) "http-client://127.0.0.1/test/poster.php?httpMethod=POST connected"
string(54) "http-client://echo.opera.com?httpMethod=POST connected"
string(65) "http-client://127.0.0.1/test/poster.php?httpMethod=POST connected"
string(12) "HTTP Request"
string(11) "dispatching"
string(12) "Request /as3"
array(4) {
  ["scheme"]=>
  string(11) "http-client"
  ["host"]=>
  string(9) "127.0.0.1"
  ["path"]=>
  string(16) "/test/poster.php"
  ["query"]=>
  string(0) ""
}
string(129) "MessageDispatch Greicodex\ServiceBuz\Processors\Producers\HttpServerProducer->Greicodex\ServiceBuz\Processors\HttpClientProcessor"
string(12) "Process HTTP"
string(37) "POST http://127.0.0.1/test/poster.php"
string(19) "Received - 21 bytes"
string(8) "Connect!"
string(8) "HTTP End"
string(5) "Data!"
string(5) "Data!"
string(7) "End!200"
string(60) "RECEIVED: q=Who+is+Javier+Munoz
 saved on: /tmp/javier.post
"
string(119) "MessageDispatchGreicodex\ServiceBuz\Processors\HttpClientProcessor->Greicodex\ServiceBuz\Processors\HttpClientProcessor"
string(12) "Process HTTP"
string(26) "POST http://echo.opera.com"
string(8) "Connect!"
string(5) "Data!"
string(5) "Data!"
string(5) "Data!"
string(7) "End!200"
string(2617) "<style>body {color: black; background-color: white;} tr:hover { background: yellow }</style><h2>POST / HTTP/1.0</h2><h2>Remote: 186.90.229.232 50347</h2><table mini:hint='folded;Headers' border=0 cellpadding=3 cellspacing=0>
<tr><td valign=top><b>Host:</b></td><td> echo.opera.com</td></tr>
<tr><td valign=top><b>User-Agent:</b></td><td> Greicodex/ServiceBus 1.0</td></tr>
<tr><td valign=top><b>Content-Type:</b></td><td> text/html</td></tr>
<tr><td valign=top><b>Date:</b></td><td> Thu, 26 Mar 2015 17:17:13 GMT</td></tr>
<tr><td valign=top><b>Server:</b></td><td> Apache/2.4.7 (Ubuntu)</td></tr>
<tr><td valign=top><b>X-Powered-By:</b></td><td> PHP/5.5.9-1ubuntu4.7</td></tr>
<tr><td valign=top><b>Content-Length:</b></td><td> 60</td></tr>
<tr><td valign=top><b>Keep-Alive:</b></td><td> timeout=5, max=100</td></tr>
<tr><td valign=top><b>Connection:</b></td><td> Keep-Alive</td></tr>
</table><hr noshade><div mini:hint='folded;Raw Request'><h2>Raw request</h2><pre>  0: 50 4f 53 54 20 2f 20 48 54 54 50 2f 31 2e 30 0d   POST / HTTP/1.0.
 10: 0a 48 6f 73 74 3a 20 65 63 68 6f 2e 6f 70 65 72   .Host: echo.oper
 20: 61 2e 63 6f 6d 0d 0a 55 73 65 72 2d 41 67 65 6e   a.com..User-Agen
 30: 74 3a 20 47 72 65 69 63 6f 64 65 78 2f 53 65 72   t: Greicodex/Ser
 40: 76 69 63 65 42 75 73 20 31 2e 30 0d 0a 43 6f 6e   viceBus 1.0..Con
 50: 74 65 6e 74 2d 54 79 70 65 3a 20 74 65 78 74 2f   tent-Type: text/
 60: 68 74 6d 6c 0d 0a 44 61 74 65 3a 20 54 68 75 2c   html..Date: Thu,
 70: 20 32 36 20 4d 61 72 20 32 30 31 35 20 31 37 3a    26 Mar 2015 17:
 80: 31 37 3a 31 33 20 47 4d 54 0d 0a 53 65 72 76 65   17:13 GMT..Serve
 90: 72 3a 20 41 70 61 63 68 65 2f 32 2e 34 2e 37 20   r: Apache/2.4.7 
 a0: 28 55 62 75 6e 74 75 29 0d 0a 58 2d 50 6f 77 65   (Ubuntu)..X-Powe
 b0: 72 65 64 2d 42 79 3a 20 50 48 50 2f 35 2e 35 2e   red-By: PHP/5.5.
 c0: 39 2d 31 75 62 75 6e 74 75 34 2e 37 0d 0a 43 6f   9-1ubuntu4.7..Co
 d0: 6e 74 65 6e 74 2d 4c 65 6e 67 74 68 3a 20 36 30   ntent-Length: 60
 e0: 0d 0a 4b 65 65 70 2d 41 6c 69 76 65 3a 20 74 69   ..Keep-Alive: ti
 f0: 6d 65 6f 75 74 3d 35 2c 20 6d 61 78 3d 31 30 30   meout=5, max=100
100: 0d 0a 43 6f 6e 6e 65 63 74 69 6f 6e 3a 20 4b 65   ..Connection: Ke
110: 65 70 2d 41 6c 69 76 65 0d 0a 0d 0a 52 45 43 45   ep-Alive....RECE
120: 49 56 45 44 3a 20 71 3d 57 68 6f 2b 69 73 2b 4a   IVED: q=Who+is+J
130: 61 76 69 65 72 2b 4d 75 6e 6f 7a 0a 20 73 61 76   avier+Munoz. sav
140: 65 64 20 6f 6e 3a 20 2f 74 6d 70 2f 6a 61 76 69   ed on: /tmp/javi
150: 65 72 2e 70 6f 73 74 0a                           er.post.
</pre></div><hr noshade><p>Page generated at Thu Mar 26 17:18:48 2015
</p>"
string(10) "LOG:got it"
string(119) "MessageDispatchGreicodex\ServiceBuz\Processors\HttpClientProcessor->Greicodex\ServiceBuz\Processors\HttpClientProcessor"
string(12) "Process HTTP"
string(37) "POST http://127.0.0.1/test/poster.php"
string(8) "Connect!"
string(5) "Data!"
string(5) "Data!"
string(7) "End!200"
string(2650) "RECEIVED: <style>body {color: black; background-color: white;} tr:hover { background: yellow }</style><h2>POST / HTTP/1.0</h2><h2>Remote: 186.90.229.232 50347</h2><table mini:hint='folded;Headers' border=0 cellpadding=3 cellspacing=0>
<tr><td valign=top><b>Host:</b></td><td> echo.opera.com</td></tr>
<tr><td valign=top><b>User-Agent:</b></td><td> Greicodex/ServiceBus 1.0</td></tr>
<tr><td valign=top><b>Content-Type:</b></td><td> text/html</td></tr>
<tr><td valign=top><b>Date:</b></td><td> Thu, 26 Mar 2015 17:17:13 GMT</td></tr>
<tr><td valign=top><b>Server:</b></td><td> Apache/2.4.7 (Ubuntu)</td></tr>
<tr><td valign=top><b>X-Powered-By:</b></td><td> PHP/5.5.9-1ubuntu4.7</td></tr>
<tr><td valign=top><b>Content-Length:</b></td><td> 60</td></tr>
<tr><td valign=top><b>Keep-Alive:</b></td><td> timeout=5, max=100</td></tr>
<tr><td valign=top><b>Connection:</b></td><td> Keep-Alive</td></tr>
</table><hr noshade><div mini:hint='folded;Raw Request'><h2>Raw request</h2><pre>  0: 50 4f 53 54 20 2f 20 48 54 54 50 2f 31 2e 30 0d   POST / HTTP/1.0.
 10: 0a 48 6f 73 74 3a 20 65 63 68 6f 2e 6f 70 65 72   .Host: echo.oper
 20: 61 2e 63 6f 6d 0d 0a 55 73 65 72 2d 41 67 65 6e   a.com..User-Agen
 30: 74 3a 20 47 72 65 69 63 6f 64 65 78 2f 53 65 72   t: Greicodex/Ser
 40: 76 69 63 65 42 75 73 20 31 2e 30 0d 0a 43 6f 6e   viceBus 1.0..Con
 50: 74 65 6e 74 2d 54 79 70 65 3a 20 74 65 78 74 2f   tent-Type: text/
 60: 68 74 6d 6c 0d 0a 44 61 74 65 3a 20 54 68 75 2c   html..Date: Thu,
 70: 20 32 36 20 4d 61 72 20 32 30 31 35 20 31 37 3a    26 Mar 2015 17:
 80: 31 37 3a 31 33 20 47 4d 54 0d 0a 53 65 72 76 65   17:13 GMT..Serve
 90: 72 3a 20 41 70 61 63 68 65 2f 32 2e 34 2e 37 20   r: Apache/2.4.7 
 a0: 28 55 62 75 6e 74 75 29 0d 0a 58 2d 50 6f 77 65   (Ubuntu)..X-Powe
 b0: 72 65 64 2d 42 79 3a 20 50 48 50 2f 35 2e 35 2e   red-By: PHP/5.5.
 c0: 39 2d 31 75 62 75 6e 74 75 34 2e 37 0d 0a 43 6f   9-1ubuntu4.7..Co
 d0: 6e 74 65 6e 74 2d 4c 65 6e 67 74 68 3a 20 36 30   ntent-Length: 60
 e0: 0d 0a 4b 65 65 70 2d 41 6c 69 76 65 3a 20 74 69   ..Keep-Alive: ti
 f0: 6d 65 6f 75 74 3d 35 2c 20 6d 61 78 3d 31 30 30   meout=5, max=100
100: 0d 0a 43 6f 6e 6e 65 63 74 69 6f 6e 3a 20 4b 65   ..Connection: Ke
110: 65 70 2d 41 6c 69 76 65 0d 0a 0d 0a 52 45 43 45   ep-Alive....RECE
120: 49 56 45 44 3a 20 71 3d 57 68 6f 2b 69 73 2b 4a   IVED: q=Who+is+J
130: 61 76 69 65 72 2b 4d 75 6e 6f 7a 0a 20 73 61 76   avier+Munoz. sav
140: 65 64 20 6f 6e 3a 20 2f 74 6d 70 2f 6a 61 76 69   ed on: /tmp/javi
150: 65 72 2e 70 6f 73 74 0a                           er.post.
</pre></div><hr noshade><p>Page generated at Thu Mar 26 17:18:48 2015
</p>
 saved on: /tmp/.post
"
string(13) "DELIVERIES: 1"
string(12) "HTTP Request"
string(11) "dispatching"
string(12) "Request /as3"
array(4) {
  ["scheme"]=>
  string(11) "http-client"
  ["host"]=>
  string(9) "127.0.0.1"
  ["path"]=>
  string(16) "/test/poster.php"
  ["query"]=>
  string(0) ""
}
string(129) "MessageDispatch Greicodex\ServiceBuz\Processors\Producers\HttpServerProducer->Greicodex\ServiceBuz\Processors\HttpClientProcessor"
string(12) "Process HTTP"
string(37) "POST http://127.0.0.1/test/poster.php"
string(19) "Received - 21 bytes"
string(8) "Connect!"
string(8) "HTTP End"
string(5) "Data!"
string(5) "Data!"
string(7) "End!200"
string(60) "RECEIVED: q=Who+is+Javier+Munoz
 saved on: /tmp/javier.post
"
string(119) "MessageDispatchGreicodex\ServiceBuz\Processors\HttpClientProcessor->Greicodex\ServiceBuz\Processors\HttpClientProcessor"
string(12) "Process HTTP"
string(26) "POST http://echo.opera.com"
string(8) "ERROR: 1"
string(12) "HTTP Request"
string(11) "dispatching"
string(12) "Request /as3"
array(4) {
  ["scheme"]=>
  string(11) "http-client"
  ["host"]=>
  string(9) "127.0.0.1"
  ["path"]=>
  string(16) "/test/poster.php"
  ["query"]=>
  string(0) ""
}
string(129) "MessageDispatch Greicodex\ServiceBuz\Processors\Producers\HttpServerProducer->Greicodex\ServiceBuz\Processors\HttpClientProcessor"
string(12) "Process HTTP"
string(37) "POST http://127.0.0.1/test/poster.php"
string(19) "Received - 21 bytes"
string(8) "Connect!"
string(8) "HTTP End"
string(5) "Data!"
string(5) "Data!"
string(7) "End!200"
string(60) "RECEIVED: q=Who+is+Javier+Munoz
 saved on: /tmp/javier.post
"
string(119) "MessageDispatchGreicodex\ServiceBuz\Processors\HttpClientProcessor->Greicodex\ServiceBuz\Processors\HttpClientProcessor"
string(12) "Process HTTP"
string(26) "POST http://echo.opera.com"
string(8) "ERROR: 2"
