array(2) {
  [0]=>
  string(8) "periodic"
  [1]=>
  string(3) "0.1"
}
array(4) {
  ["scheme"]=>
  string(5) "timer"
  ["host"]=>
  string(5) "dummy"
  ["path"]=>
  string(1) "/"
  ["query"]=>
  string(0) ""
}
string(31) "http://echo.opera.com connected"
string(50) "file:///tmp/?filename=javier&append=true connected"
string(58) "http://127.0.0.1/test/poster.php?httpMethod=POST connected"
array(2) {
  [0]=>
  string(8) "periodic"
  [1]=>
  string(3) "0.1"
}
array(4) {
  ["scheme"]=>
  string(5) "timer"
  ["host"]=>
  string(5) "dummy"
  ["path"]=>
  string(1) "/"
  ["query"]=>
  string(0) ""
}
string(31) "http://echo.opera.com connected"
string(50) "file:///tmp/?filename=javier&append=true connected"
string(58) "http://127.0.0.1/test/poster.php?httpMethod=POST connected"
string(5) "Tick!"
string(6) "MSG: 1"
string(117) "MessageDispatchGreicodex\ServiceBuz\Processors\Producers\TimerProducer->Greicodex\ServiceBuz\Processors\HttpProcessor"
string(12) "Process HTTP"
string(43) "GET http://echo.opera.com?Array&Hello World"
array(5) {
  ["Host"]=>
  string(14) "echo.opera.com"
  ["Content-Type"]=>
  string(33) "application/x-www-form-urlencoded"
  ["User-Agent"]=>
  string(24) "Greicodex/ServiceBus 1.0"
  ["Timestamp"]=>
  int(1427327984)
  ["Content-Length"]=>
  int(0)
}
string(0) ""
string(5) "Tick!"
string(6) "MSG: 1"
string(117) "MessageDispatchGreicodex\ServiceBuz\Processors\Producers\TimerProducer->Greicodex\ServiceBuz\Processors\HttpProcessor"
string(12) "Process HTTP"
string(45) "GET http://echo.opera.com?Array&Goodbye World"
array(5) {
  ["Host"]=>
  string(14) "echo.opera.com"
  ["Content-Type"]=>
  string(33) "application/x-www-form-urlencoded"
  ["User-Agent"]=>
  string(24) "Greicodex/ServiceBus 1.0"
  ["Timestamp"]=>
  int(1427327984)
  ["Content-Length"]=>
  int(0)
}
string(0) ""
string(5) "Tick!"
string(6) "MSG: 2"
string(117) "MessageDispatchGreicodex\ServiceBuz\Processors\Producers\TimerProducer->Greicodex\ServiceBuz\Processors\HttpProcessor"
string(12) "Process HTTP"
string(43) "GET http://echo.opera.com?Array&Hello World"
array(5) {
  ["Host"]=>
  string(14) "echo.opera.com"
  ["Content-Type"]=>
  string(33) "application/x-www-form-urlencoded"
  ["User-Agent"]=>
  string(24) "Greicodex/ServiceBus 1.0"
  ["Timestamp"]=>
  int(1427327984)
  ["Content-Length"]=>
  int(0)
}
string(0) ""
string(5) "Tick!"
string(6) "MSG: 2"
string(117) "MessageDispatchGreicodex\ServiceBuz\Processors\Producers\TimerProducer->Greicodex\ServiceBuz\Processors\HttpProcessor"
string(12) "Process HTTP"
string(45) "GET http://echo.opera.com?Array&Goodbye World"
array(5) {
  ["Host"]=>
  string(14) "echo.opera.com"
  ["Content-Type"]=>
  string(33) "application/x-www-form-urlencoded"
  ["User-Agent"]=>
  string(24) "Greicodex/ServiceBus 1.0"
  ["Timestamp"]=>
  int(1427327984)
  ["Content-Length"]=>
  int(0)
}
string(0) ""
string(5) "Tick!"
string(6) "MSG: 3"
string(117) "MessageDispatchGreicodex\ServiceBuz\Processors\Producers\TimerProducer->Greicodex\ServiceBuz\Processors\HttpProcessor"
string(12) "Process HTTP"
string(43) "GET http://echo.opera.com?Array&Hello World"
array(5) {
  ["Host"]=>
  string(14) "echo.opera.com"
  ["Content-Type"]=>
  string(33) "application/x-www-form-urlencoded"
  ["User-Agent"]=>
  string(24) "Greicodex/ServiceBus 1.0"
  ["Timestamp"]=>
  int(1427327984)
  ["Content-Length"]=>
  int(0)
}
string(0) ""
string(5) "Tick!"
string(6) "MSG: 3"
string(117) "MessageDispatchGreicodex\ServiceBuz\Processors\Producers\TimerProducer->Greicodex\ServiceBuz\Processors\HttpProcessor"
string(12) "Process HTTP"
string(45) "GET http://echo.opera.com?Array&Goodbye World"
array(5) {
  ["Host"]=>
  string(14) "echo.opera.com"
  ["Content-Type"]=>
  string(33) "application/x-www-form-urlencoded"
  ["User-Agent"]=>
  string(24) "Greicodex/ServiceBus 1.0"
  ["Timestamp"]=>
  int(1427327984)
  ["Content-Length"]=>
  int(0)
}
string(0) ""
string(5) "Tick!"
string(6) "MSG: 4"
string(117) "MessageDispatchGreicodex\ServiceBuz\Processors\Producers\TimerProducer->Greicodex\ServiceBuz\Processors\HttpProcessor"
string(12) "Process HTTP"
string(43) "GET http://echo.opera.com?Array&Hello World"
array(5) {
  ["Host"]=>
  string(14) "echo.opera.com"
  ["Content-Type"]=>
  string(33) "application/x-www-form-urlencoded"
  ["User-Agent"]=>
  string(24) "Greicodex/ServiceBus 1.0"
  ["Timestamp"]=>
  int(1427327985)
  ["Content-Length"]=>
  int(0)
}
string(0) ""
string(5) "Tick!"
string(6) "MSG: 4"
string(117) "MessageDispatchGreicodex\ServiceBuz\Processors\Producers\TimerProducer->Greicodex\ServiceBuz\Processors\HttpProcessor"
string(12) "Process HTTP"
string(45) "GET http://echo.opera.com?Array&Goodbye World"
array(5) {
  ["Host"]=>
  string(14) "echo.opera.com"
  ["Content-Type"]=>
  string(33) "application/x-www-form-urlencoded"
  ["User-Agent"]=>
  string(24) "Greicodex/ServiceBus 1.0"
  ["Timestamp"]=>
  int(1427327985)
  ["Content-Length"]=>
  int(0)
}
string(0) ""
string(5) "Tick!"
string(6) "MSG: 5"
string(117) "MessageDispatchGreicodex\ServiceBuz\Processors\Producers\TimerProducer->Greicodex\ServiceBuz\Processors\HttpProcessor"
string(12) "Process HTTP"
string(43) "GET http://echo.opera.com?Array&Hello World"
array(5) {
  ["Host"]=>
  string(14) "echo.opera.com"
  ["Content-Type"]=>
  string(33) "application/x-www-form-urlencoded"
  ["User-Agent"]=>
  string(24) "Greicodex/ServiceBus 1.0"
  ["Timestamp"]=>
  int(1427327985)
  ["Content-Length"]=>
  int(0)
}
string(0) ""
string(5) "Tick!"
string(6) "MSG: 5"
string(117) "MessageDispatchGreicodex\ServiceBuz\Processors\Producers\TimerProducer->Greicodex\ServiceBuz\Processors\HttpProcessor"
string(12) "Process HTTP"
string(45) "GET http://echo.opera.com?Array&Goodbye World"
array(5) {
  ["Host"]=>
  string(14) "echo.opera.com"
  ["Content-Type"]=>
  string(33) "application/x-www-form-urlencoded"
  ["User-Agent"]=>
  string(24) "Greicodex/ServiceBus 1.0"
  ["Timestamp"]=>
  int(1427327985)
  ["Content-Length"]=>
  int(0)
}
string(0) ""
string(5) "Tick!"
string(6) "MSG: 6"
string(117) "MessageDispatchGreicodex\ServiceBuz\Processors\Producers\TimerProducer->Greicodex\ServiceBuz\Processors\HttpProcessor"
string(12) "Process HTTP"
string(43) "GET http://echo.opera.com?Array&Hello World"
array(5) {
  ["Host"]=>
  string(14) "echo.opera.com"
  ["Content-Type"]=>
  string(33) "application/x-www-form-urlencoded"
  ["User-Agent"]=>
  string(24) "Greicodex/ServiceBus 1.0"
  ["Timestamp"]=>
  int(1427327985)
  ["Content-Length"]=>
  int(0)
}
string(0) ""
string(5) "Tick!"
string(6) "MSG: 6"
string(117) "MessageDispatchGreicodex\ServiceBuz\Processors\Producers\TimerProducer->Greicodex\ServiceBuz\Processors\HttpProcessor"
string(12) "Process HTTP"
string(45) "GET http://echo.opera.com?Array&Goodbye World"
array(5) {
  ["Host"]=>
  string(14) "echo.opera.com"
  ["Content-Type"]=>
  string(33) "application/x-www-form-urlencoded"
  ["User-Agent"]=>
  string(24) "Greicodex/ServiceBus 1.0"
  ["Timestamp"]=>
  int(1427327985)
  ["Content-Length"]=>
  int(0)
}
string(0) ""
string(8) "Connect!"
string(8) "Connect!"
string(8) "Connect!"
string(5) "Tick!"
string(6) "MSG: 7"
string(117) "MessageDispatchGreicodex\ServiceBuz\Processors\Producers\TimerProducer->Greicodex\ServiceBuz\Processors\HttpProcessor"
string(12) "Process HTTP"
string(43) "GET http://echo.opera.com?Array&Hello World"
array(5) {
  ["Host"]=>
  string(14) "echo.opera.com"
  ["Content-Type"]=>
  string(33) "application/x-www-form-urlencoded"
  ["User-Agent"]=>
  string(24) "Greicodex/ServiceBus 1.0"
  ["Timestamp"]=>
  int(1427327985)
  ["Content-Length"]=>
  int(0)
}
string(0) ""
string(5) "Tick!"
string(6) "MSG: 7"
string(117) "MessageDispatchGreicodex\ServiceBuz\Processors\Producers\TimerProducer->Greicodex\ServiceBuz\Processors\HttpProcessor"
string(12) "Process HTTP"
string(45) "GET http://echo.opera.com?Array&Goodbye World"
array(5) {
  ["Host"]=>
  string(14) "echo.opera.com"
  ["Content-Type"]=>
  string(33) "application/x-www-form-urlencoded"
  ["User-Agent"]=>
  string(24) "Greicodex/ServiceBus 1.0"
  ["Timestamp"]=>
  int(1427327985)
  ["Content-Length"]=>
  int(0)
}
string(0) ""
string(8) "Connect!"
string(8) "Connect!"
string(8) "Connect!"
string(8) "Connect!"
string(8) "Connect!"
string(8) "Connect!"
string(8) "Connect!"
string(5) "Tick!"
string(6) "MSG: 8"
string(117) "MessageDispatchGreicodex\ServiceBuz\Processors\Producers\TimerProducer->Greicodex\ServiceBuz\Processors\HttpProcessor"
string(12) "Process HTTP"
string(43) "GET http://echo.opera.com?Array&Hello World"
array(5) {
  ["Host"]=>
  string(14) "echo.opera.com"
  ["Content-Type"]=>
  string(33) "application/x-www-form-urlencoded"
  ["User-Agent"]=>
  string(24) "Greicodex/ServiceBus 1.0"
  ["Timestamp"]=>
  int(1427327985)
  ["Content-Length"]=>
  int(0)
}
string(0) ""
string(5) "Tick!"
string(6) "MSG: 8"
string(117) "MessageDispatchGreicodex\ServiceBuz\Processors\Producers\TimerProducer->Greicodex\ServiceBuz\Processors\HttpProcessor"
string(12) "Process HTTP"
string(45) "GET http://echo.opera.com?Array&Goodbye World"
array(5) {
  ["Host"]=>
  string(14) "echo.opera.com"
  ["Content-Type"]=>
  string(33) "application/x-www-form-urlencoded"
  ["User-Agent"]=>
  string(24) "Greicodex/ServiceBus 1.0"
  ["Timestamp"]=>
  int(1427327985)
  ["Content-Length"]=>
  int(0)
}
string(0) ""
string(5) "Tick!"
string(6) "MSG: 9"
string(117) "MessageDispatchGreicodex\ServiceBuz\Processors\Producers\TimerProducer->Greicodex\ServiceBuz\Processors\HttpProcessor"
string(12) "Process HTTP"
string(43) "GET http://echo.opera.com?Array&Hello World"
array(5) {
  ["Host"]=>
  string(14) "echo.opera.com"
  ["Content-Type"]=>
  string(33) "application/x-www-form-urlencoded"
  ["User-Agent"]=>
  string(24) "Greicodex/ServiceBus 1.0"
  ["Timestamp"]=>
  int(1427327985)
  ["Content-Length"]=>
  int(0)
}
string(0) ""
string(5) "Tick!"
string(6) "MSG: 9"
string(117) "MessageDispatchGreicodex\ServiceBuz\Processors\Producers\TimerProducer->Greicodex\ServiceBuz\Processors\HttpProcessor"
string(12) "Process HTTP"
string(45) "GET http://echo.opera.com?Array&Goodbye World"
array(5) {
  ["Host"]=>
  string(14) "echo.opera.com"
  ["Content-Type"]=>
  string(33) "application/x-www-form-urlencoded"
  ["User-Agent"]=>
  string(24) "Greicodex/ServiceBus 1.0"
  ["Timestamp"]=>
  int(1427327985)
  ["Content-Length"]=>
  int(0)
}
string(0) ""
string(8) "Connect!"
string(8) "Connect!"
string(5) "Data!"
string(5) "Data!"
string(7) "End!200"
string(1639) "<style>body {color: black; background-color: white;} tr:hover { background: yellow }</style><h2>GET /?Array&amp;Goodbye World HTTP/1.0</h2><h2>Remote: 190.78.219.220 47233</h2><table mini:hint='folded;Headers' border=0 cellpadding=3 cellspacing=0>
<tr><td valign=top><b>Host:</b></td><td> echo.opera.com</td></tr>
<tr><td valign=top><b>User-Agent:</b></td><td> Greicodex/ServiceBus 1.0</td></tr>
<tr><td valign=top><b>Content-Type:</b></td><td> application/x-www-form-urlencoded</td></tr>
<tr><td valign=top><b>Timestamp:</b></td><td> 1427327984</td></tr>
<tr><td valign=top><b>Content-Length:</b></td><td> 0</td></tr>
</table><hr noshade><div mini:hint='folded;Raw Request'><h2>Raw request</h2><pre>  0: 47 45 54 20 2f 3f 41 72 72 61 79 26 47 6f 6f 64   GET /?Array&amp;Good
 10: 62 79 65 20 57 6f 72 6c 64 20 48 54 54 50 2f 31   bye World HTTP/1
 20: 2e 30 0d 0a 48 6f 73 74 3a 20 65 63 68 6f 2e 6f   .0..Host: echo.o
 30: 70 65 72 61 2e 63 6f 6d 0d 0a 55 73 65 72 2d 41   pera.com..User-A
 40: 67 65 6e 74 3a 20 47 72 65 69 63 6f 64 65 78 2f   gent: Greicodex/
 50: 53 65 72 76 69 63 65 42 75 73 20 31 2e 30 0d 0a   ServiceBus 1.0..
 60: 43 6f 6e 74 65 6e 74 2d 54 79 70 65 3a 20 61 70   Content-Type: ap
 70: 70 6c 69 63 61 74 69 6f 6e 2f 78 2d 77 77 77 2d   plication/x-www-
 80: 66 6f 72 6d 2d 75 72 6c 65 6e 63 6f 64 65 64 0d   form-urlencoded.
 90: 0a 54 69 6d 65 73 74 61 6d 70 3a 20 31 34 32 37   .Timestamp: 1427
 a0: 33 32 37 39 38 34 0d 0a 43 6f 6e 74 65 6e 74 2d   327984..Content-
 b0: 4c 65 6e 67 74 68 3a 20 30 0d 0a 0d 0a            Length: 0....
</pre></div><hr noshade><p>Page generated at Thu Mar 26 00:01:14 2015
</p>"
string(116) "MessageDispatchGreicodex\ServiceBuz\Processors\HttpProcessor->Greicodex\ServiceBuz\Processors\Consumers\FileConsumer"
string(12) "Process FILE"
string(19) "file:/tmp/busvQWP4H"
string(116) "MessageDispatchGreicodex\ServiceBuz\Processors\Consumers\FileConsumer->Greicodex\ServiceBuz\Processors\HttpProcessor"
string(12) "Process HTTP"
string(37) "POST http://127.0.0.1/test/poster.php"
array(13) {
  ["Host"]=>
  string(9) "127.0.0.1"
  ["Content-Type"]=>
  string(9) "text/html"
  ["User-Agent"]=>
  string(24) "Greicodex/ServiceBus 1.0"
  ["Vary"]=>
  string(1) "*"
  ["Server"]=>
  string(16) "Roxen/5.4.74-git"
  ["Accept-Ranges"]=>
  string(5) "bytes"
  ["Last-Modified"]=>
  string(29) "Thu, 26 Mar 2015 00:01:14 GMT"
  ["ETag"]=>
  string(34) ""1a09debe57c38262f9ce434a039d76fa""
  ["Connection"]=>
  string(5) "close"
  ["Date"]=>
  string(29) "Thu, 26 Mar 2015 00:01:14 GMT"
  ["Expires"]=>
  string(29) "Tue, 25 Mar 2014 18:01:14 GMT"
  ["Content-Length"]=>
  int(1639)
  ["Filename"]=>
  string(14) "/tmp/busvQWP4H"
}
string(1639) "<style>body {color: black; background-color: white;} tr:hover { background: yellow }</style><h2>GET /?Array&amp;Goodbye World HTTP/1.0</h2><h2>Remote: 190.78.219.220 47233</h2><table mini:hint='folded;Headers' border=0 cellpadding=3 cellspacing=0>
<tr><td valign=top><b>Host:</b></td><td> echo.opera.com</td></tr>
<tr><td valign=top><b>User-Agent:</b></td><td> Greicodex/ServiceBus 1.0</td></tr>
<tr><td valign=top><b>Content-Type:</b></td><td> application/x-www-form-urlencoded</td></tr>
<tr><td valign=top><b>Timestamp:</b></td><td> 1427327984</td></tr>
<tr><td valign=top><b>Content-Length:</b></td><td> 0</td></tr>
</table><hr noshade><div mini:hint='folded;Raw Request'><h2>Raw request</h2><pre>  0: 47 45 54 20 2f 3f 41 72 72 61 79 26 47 6f 6f 64   GET /?Array&amp;Good
 10: 62 79 65 20 57 6f 72 6c 64 20 48 54 54 50 2f 31   bye World HTTP/1
 20: 2e 30 0d 0a 48 6f 73 74 3a 20 65 63 68 6f 2e 6f   .0..Host: echo.o
 30: 70 65 72 61 2e 63 6f 6d 0d 0a 55 73 65 72 2d 41   pera.com..User-A
 40: 67 65 6e 74 3a 20 47 72 65 69 63 6f 64 65 78 2f   gent: Greicodex/
 50: 53 65 72 76 69 63 65 42 75 73 20 31 2e 30 0d 0a   ServiceBus 1.0..
 60: 43 6f 6e 74 65 6e 74 2d 54 79 70 65 3a 20 61 70   Content-Type: ap
 70: 70 6c 69 63 61 74 69 6f 6e 2f 78 2d 77 77 77 2d   plication/x-www-
 80: 66 6f 72 6d 2d 75 72 6c 65 6e 63 6f 64 65 64 0d   form-urlencoded.
 90: 0a 54 69 6d 65 73 74 61 6d 70 3a 20 31 34 32 37   .Timestamp: 1427
 a0: 33 32 37 39 38 34 0d 0a 43 6f 6e 74 65 6e 74 2d   327984..Content-
 b0: 4c 65 6e 67 74 68 3a 20 30 0d 0a 0d 0a            Length: 0....
</pre></div><hr noshade><p>Page generated at Thu Mar 26 00:01:14 2015
</p>"
string(8) "Connect!"
string(5) "Data!"
string(7) "End!200"
string(1681) "RECEIVED: <style>body {color: black; background-color: white;} tr:hover { background: yellow }</style><h2>GET /?Array&amp;Goodbye World HTTP/1.0</h2><h2>Remote: 190.78.219.220 47233</h2><table mini:hint='folded;Headers' border=0 cellpadding=3 cellspacing=0>
<tr><td valign=top><b>Host:</b></td><td> echo.opera.com</td></tr>
<tr><td valign=top><b>User-Agent:</b></td><td> Greicodex/ServiceBus 1.0</td></tr>
<tr><td valign=top><b>Content-Type:</b></td><td> application/x-www-form-urlencoded</td></tr>
<tr><td valign=top><b>Timestamp:</b></td><td> 1427327984</td></tr>
<tr><td valign=top><b>Content-Length:</b></td><td> 0</td></tr>
</table><hr noshade><div mini:hint='folded;Raw Request'><h2>Raw request</h2><pre>  0: 47 45 54 20 2f 3f 41 72 72 61 79 26 47 6f 6f 64   GET /?Array&amp;Good
 10: 62 79 65 20 57 6f 72 6c 64 20 48 54 54 50 2f 31   bye World HTTP/1
 20: 2e 30 0d 0a 48 6f 73 74 3a 20 65 63 68 6f 2e 6f   .0..Host: echo.o
 30: 70 65 72 61 2e 63 6f 6d 0d 0a 55 73 65 72 2d 41   pera.com..User-A
 40: 67 65 6e 74 3a 20 47 72 65 69 63 6f 64 65 78 2f   gent: Greicodex/
 50: 53 65 72 76 69 63 65 42 75 73 20 31 2e 30 0d 0a   ServiceBus 1.0..
 60: 43 6f 6e 74 65 6e 74 2d 54 79 70 65 3a 20 61 70   Content-Type: ap
 70: 70 6c 69 63 61 74 69 6f 6e 2f 78 2d 77 77 77 2d   plication/x-www-
 80: 66 6f 72 6d 2d 75 72 6c 65 6e 63 6f 64 65 64 0d   form-urlencoded.
 90: 0a 54 69 6d 65 73 74 61 6d 70 3a 20 31 34 32 37   .Timestamp: 1427
 a0: 33 32 37 39 38 34 0d 0a 43 6f 6e 74 65 6e 74 2d   327984..Content-
 b0: 4c 65 6e 67 74 68 3a 20 30 0d 0a 0d 0a            Length: 0....
</pre></div><hr noshade><p>Page generated at Thu Mar 26 00:01:14 2015
</p>
 saved on: /tmp/busvQWP4H.post
"
string(13) "DELIVERIES: 1"
string(5) "Data!"
string(5) "Data!"
string(7) "End!200"
string(1635) "<style>body {color: black; background-color: white;} tr:hover { background: yellow }</style><h2>GET /?Array&amp;Hello World HTTP/1.0</h2><h2>Remote: 190.78.219.220 47232</h2><table mini:hint='folded;Headers' border=0 cellpadding=3 cellspacing=0>
<tr><td valign=top><b>Host:</b></td><td> echo.opera.com</td></tr>
<tr><td valign=top><b>User-Agent:</b></td><td> Greicodex/ServiceBus 1.0</td></tr>
<tr><td valign=top><b>Content-Type:</b></td><td> application/x-www-form-urlencoded</td></tr>
<tr><td valign=top><b>Timestamp:</b></td><td> 1427327984</td></tr>
<tr><td valign=top><b>Content-Length:</b></td><td> 0</td></tr>
</table><hr noshade><div mini:hint='folded;Raw Request'><h2>Raw request</h2><pre>  0: 47 45 54 20 2f 3f 41 72 72 61 79 26 48 65 6c 6c   GET /?Array&amp;Hell
 10: 6f 20 57 6f 72 6c 64 20 48 54 54 50 2f 31 2e 30   o World HTTP/1.0
 20: 0d 0a 48 6f 73 74 3a 20 65 63 68 6f 2e 6f 70 65   ..Host: echo.ope
 30: 72 61 2e 63 6f 6d 0d 0a 55 73 65 72 2d 41 67 65   ra.com..User-Age
 40: 6e 74 3a 20 47 72 65 69 63 6f 64 65 78 2f 53 65   nt: Greicodex/Se
 50: 72 76 69 63 65 42 75 73 20 31 2e 30 0d 0a 43 6f   rviceBus 1.0..Co
 60: 6e 74 65 6e 74 2d 54 79 70 65 3a 20 61 70 70 6c   ntent-Type: appl
 70: 69 63 61 74 69 6f 6e 2f 78 2d 77 77 77 2d 66 6f   ication/x-www-fo
 80: 72 6d 2d 75 72 6c 65 6e 63 6f 64 65 64 0d 0a 54   rm-urlencoded..T
 90: 69 6d 65 73 74 61 6d 70 3a 20 31 34 32 37 33 32   imestamp: 142732
 a0: 37 39 38 34 0d 0a 43 6f 6e 74 65 6e 74 2d 4c 65   7984..Content-Le
 b0: 6e 67 74 68 3a 20 30 0d 0a 0d 0a                  ngth: 0....
</pre></div><hr noshade><p>Page generated at Thu Mar 26 00:01:14 2015
</p>"
string(116) "MessageDispatchGreicodex\ServiceBuz\Processors\HttpProcessor->Greicodex\ServiceBuz\Processors\Consumers\FileConsumer"
string(12) "Process FILE"
string(19) "file:/tmp/bus18LC4v"
string(116) "MessageDispatchGreicodex\ServiceBuz\Processors\Consumers\FileConsumer->Greicodex\ServiceBuz\Processors\HttpProcessor"
string(12) "Process HTTP"
string(37) "POST http://127.0.0.1/test/poster.php"
array(13) {
  ["Host"]=>
  string(9) "127.0.0.1"
  ["Content-Type"]=>
  string(9) "text/html"
  ["User-Agent"]=>
  string(24) "Greicodex/ServiceBus 1.0"
  ["Vary"]=>
  string(1) "*"
  ["Server"]=>
  string(16) "Roxen/5.4.74-git"
  ["Accept-Ranges"]=>
  string(5) "bytes"
  ["Last-Modified"]=>
  string(29) "Thu, 26 Mar 2015 00:01:14 GMT"
  ["ETag"]=>
  string(34) ""4d570bead2e7c1d7d985b8790e6a32f2""
  ["Connection"]=>
  string(5) "close"
  ["Date"]=>
  string(29) "Thu, 26 Mar 2015 00:01:14 GMT"
  ["Expires"]=>
  string(29) "Tue, 25 Mar 2014 18:01:14 GMT"
  ["Content-Length"]=>
  int(1635)
  ["Filename"]=>
  string(14) "/tmp/bus18LC4v"
}
string(1635) "<style>body {color: black; background-color: white;} tr:hover { background: yellow }</style><h2>GET /?Array&amp;Hello World HTTP/1.0</h2><h2>Remote: 190.78.219.220 47232</h2><table mini:hint='folded;Headers' border=0 cellpadding=3 cellspacing=0>
<tr><td valign=top><b>Host:</b></td><td> echo.opera.com</td></tr>
<tr><td valign=top><b>User-Agent:</b></td><td> Greicodex/ServiceBus 1.0</td></tr>
<tr><td valign=top><b>Content-Type:</b></td><td> application/x-www-form-urlencoded</td></tr>
<tr><td valign=top><b>Timestamp:</b></td><td> 1427327984</td></tr>
<tr><td valign=top><b>Content-Length:</b></td><td> 0</td></tr>
</table><hr noshade><div mini:hint='folded;Raw Request'><h2>Raw request</h2><pre>  0: 47 45 54 20 2f 3f 41 72 72 61 79 26 48 65 6c 6c   GET /?Array&amp;Hell
 10: 6f 20 57 6f 72 6c 64 20 48 54 54 50 2f 31 2e 30   o World HTTP/1.0
 20: 0d 0a 48 6f 73 74 3a 20 65 63 68 6f 2e 6f 70 65   ..Host: echo.ope
 30: 72 61 2e 63 6f 6d 0d 0a 55 73 65 72 2d 41 67 65   ra.com..User-Age
 40: 6e 74 3a 20 47 72 65 69 63 6f 64 65 78 2f 53 65   nt: Greicodex/Se
 50: 72 76 69 63 65 42 75 73 20 31 2e 30 0d 0a 43 6f   rviceBus 1.0..Co
 60: 6e 74 65 6e 74 2d 54 79 70 65 3a 20 61 70 70 6c   ntent-Type: appl
 70: 69 63 61 74 69 6f 6e 2f 78 2d 77 77 77 2d 66 6f   ication/x-www-fo
 80: 72 6d 2d 75 72 6c 65 6e 63 6f 64 65 64 0d 0a 54   rm-urlencoded..T
 90: 69 6d 65 73 74 61 6d 70 3a 20 31 34 32 37 33 32   imestamp: 142732
 a0: 37 39 38 34 0d 0a 43 6f 6e 74 65 6e 74 2d 4c 65   7984..Content-Le
 b0: 6e 67 74 68 3a 20 30 0d 0a 0d 0a                  ngth: 0....
</pre></div><hr noshade><p>Page generated at Thu Mar 26 00:01:14 2015
</p>"
string(8) "Connect!"
string(5) "Data!"
string(7) "End!200"
string(1677) "RECEIVED: <style>body {color: black; background-color: white;} tr:hover { background: yellow }</style><h2>GET /?Array&amp;Hello World HTTP/1.0</h2><h2>Remote: 190.78.219.220 47232</h2><table mini:hint='folded;Headers' border=0 cellpadding=3 cellspacing=0>
<tr><td valign=top><b>Host:</b></td><td> echo.opera.com</td></tr>
<tr><td valign=top><b>User-Agent:</b></td><td> Greicodex/ServiceBus 1.0</td></tr>
<tr><td valign=top><b>Content-Type:</b></td><td> application/x-www-form-urlencoded</td></tr>
<tr><td valign=top><b>Timestamp:</b></td><td> 1427327984</td></tr>
<tr><td valign=top><b>Content-Length:</b></td><td> 0</td></tr>
</table><hr noshade><div mini:hint='folded;Raw Request'><h2>Raw request</h2><pre>  0: 47 45 54 20 2f 3f 41 72 72 61 79 26 48 65 6c 6c   GET /?Array&amp;Hell
 10: 6f 20 57 6f 72 6c 64 20 48 54 54 50 2f 31 2e 30   o World HTTP/1.0
 20: 0d 0a 48 6f 73 74 3a 20 65 63 68 6f 2e 6f 70 65   ..Host: echo.ope
 30: 72 61 2e 63 6f 6d 0d 0a 55 73 65 72 2d 41 67 65   ra.com..User-Age
 40: 6e 74 3a 20 47 72 65 69 63 6f 64 65 78 2f 53 65   nt: Greicodex/Se
 50: 72 76 69 63 65 42 75 73 20 31 2e 30 0d 0a 43 6f   rviceBus 1.0..Co
 60: 6e 74 65 6e 74 2d 54 79 70 65 3a 20 61 70 70 6c   ntent-Type: appl
 70: 69 63 61 74 69 6f 6e 2f 78 2d 77 77 77 2d 66 6f   ication/x-www-fo
 80: 72 6d 2d 75 72 6c 65 6e 63 6f 64 65 64 0d 0a 54   rm-urlencoded..T
 90: 69 6d 65 73 74 61 6d 70 3a 20 31 34 32 37 33 32   imestamp: 142732
 a0: 37 39 38 34 0d 0a 43 6f 6e 74 65 6e 74 2d 4c 65   7984..Content-Le
 b0: 6e 67 74 68 3a 20 30 0d 0a 0d 0a                  ngth: 0....
</pre></div><hr noshade><p>Page generated at Thu Mar 26 00:01:14 2015
</p>
 saved on: /tmp/bus18LC4v.post
"
string(13) "DELIVERIES: 1"
string(5) "Tick!"
string(7) "MSG: 10"
string(117) "MessageDispatchGreicodex\ServiceBuz\Processors\Producers\TimerProducer->Greicodex\ServiceBuz\Processors\HttpProcessor"
string(12) "Process HTTP"
string(43) "GET http://echo.opera.com?Array&Hello World"
array(5) {
  ["Host"]=>
  string(14) "echo.opera.com"
  ["Content-Type"]=>
  string(33) "application/x-www-form-urlencoded"
  ["User-Agent"]=>
  string(24) "Greicodex/ServiceBus 1.0"
  ["Timestamp"]=>
  int(1427327985)
  ["Content-Length"]=>
  int(0)
}
string(0) ""
string(5) "Tick!"
string(7) "MSG: 10"
string(117) "MessageDispatchGreicodex\ServiceBuz\Processors\Producers\TimerProducer->Greicodex\ServiceBuz\Processors\HttpProcessor"
string(12) "Process HTTP"
string(45) "GET http://echo.opera.com?Array&Goodbye World"
array(5) {
  ["Host"]=>
  string(14) "echo.opera.com"
  ["Content-Type"]=>
  string(33) "application/x-www-form-urlencoded"
  ["User-Agent"]=>
  string(24) "Greicodex/ServiceBus 1.0"
  ["Timestamp"]=>
  int(1427327985)
  ["Content-Length"]=>
  int(0)
}
string(0) ""
string(5) "Data!"
string(5) "Data!"
string(7) "End!200"
string(1635) "<style>body {color: black; background-color: white;} tr:hover { background: yellow }</style><h2>GET /?Array&amp;Hello World HTTP/1.0</h2><h2>Remote: 190.78.219.220 47234</h2><table mini:hint='folded;Headers' border=0 cellpadding=3 cellspacing=0>
<tr><td valign=top><b>Host:</b></td><td> echo.opera.com</td></tr>
<tr><td valign=top><b>User-Agent:</b></td><td> Greicodex/ServiceBus 1.0</td></tr>
<tr><td valign=top><b>Content-Type:</b></td><td> application/x-www-form-urlencoded</td></tr>
<tr><td valign=top><b>Timestamp:</b></td><td> 1427327985</td></tr>
<tr><td valign=top><b>Content-Length:</b></td><td> 0</td></tr>
</table><hr noshade><div mini:hint='folded;Raw Request'><h2>Raw request</h2><pre>  0: 47 45 54 20 2f 3f 41 72 72 61 79 26 48 65 6c 6c   GET /?Array&amp;Hell
 10: 6f 20 57 6f 72 6c 64 20 48 54 54 50 2f 31 2e 30   o World HTTP/1.0
 20: 0d 0a 48 6f 73 74 3a 20 65 63 68 6f 2e 6f 70 65   ..Host: echo.ope
 30: 72 61 2e 63 6f 6d 0d 0a 55 73 65 72 2d 41 67 65   ra.com..User-Age
 40: 6e 74 3a 20 47 72 65 69 63 6f 64 65 78 2f 53 65   nt: Greicodex/Se
 50: 72 76 69 63 65 42 75 73 20 31 2e 30 0d 0a 43 6f   rviceBus 1.0..Co
 60: 6e 74 65 6e 74 2d 54 79 70 65 3a 20 61 70 70 6c   ntent-Type: appl
 70: 69 63 61 74 69 6f 6e 2f 78 2d 77 77 77 2d 66 6f   ication/x-www-fo
 80: 72 6d 2d 75 72 6c 65 6e 63 6f 64 65 64 0d 0a 54   rm-urlencoded..T
 90: 69 6d 65 73 74 61 6d 70 3a 20 31 34 32 37 33 32   imestamp: 142732
 a0: 37 39 38 35 0d 0a 43 6f 6e 74 65 6e 74 2d 4c 65   7985..Content-Le
 b0: 6e 67 74 68 3a 20 30 0d 0a 0d 0a                  ngth: 0....
</pre></div><hr noshade><p>Page generated at Thu Mar 26 00:01:14 2015
</p>"
string(116) "MessageDispatchGreicodex\ServiceBuz\Processors\HttpProcessor->Greicodex\ServiceBuz\Processors\Consumers\FileConsumer"
string(12) "Process FILE"
string(19) "file:/tmp/busQ1EXok"
string(8) "Connect!"
string(8) "Connect!"
string(116) "MessageDispatchGreicodex\ServiceBuz\Processors\Consumers\FileConsumer->Greicodex\ServiceBuz\Processors\HttpProcessor"
string(12) "Process HTTP"
string(37) "POST http://127.0.0.1/test/poster.php"
array(13) {
  ["Host"]=>
  string(9) "127.0.0.1"
  ["Content-Type"]=>
  string(9) "text/html"
  ["User-Agent"]=>
  string(24) "Greicodex/ServiceBus 1.0"
  ["Vary"]=>
  string(1) "*"
  ["Server"]=>
  string(16) "Roxen/5.4.74-git"
  ["Accept-Ranges"]=>
  string(5) "bytes"
  ["Last-Modified"]=>
  string(29) "Thu, 26 Mar 2015 00:01:14 GMT"
  ["ETag"]=>
  string(34) ""e4a1378865515b5b973e2cb5ce7607d0""
  ["Connection"]=>
  string(5) "close"
  ["Date"]=>
  string(29) "Thu, 26 Mar 2015 00:01:14 GMT"
  ["Expires"]=>
  string(29) "Tue, 25 Mar 2014 18:01:14 GMT"
  ["Content-Length"]=>
  int(1635)
  ["Filename"]=>
  string(14) "/tmp/busQ1EXok"
}
string(1635) "<style>body {color: black; background-color: white;} tr:hover { background: yellow }</style><h2>GET /?Array&amp;Hello World HTTP/1.0</h2><h2>Remote: 190.78.219.220 47234</h2><table mini:hint='folded;Headers' border=0 cellpadding=3 cellspacing=0>
<tr><td valign=top><b>Host:</b></td><td> echo.opera.com</td></tr>
<tr><td valign=top><b>User-Agent:</b></td><td> Greicodex/ServiceBus 1.0</td></tr>
<tr><td valign=top><b>Content-Type:</b></td><td> application/x-www-form-urlencoded</td></tr>
<tr><td valign=top><b>Timestamp:</b></td><td> 1427327985</td></tr>
<tr><td valign=top><b>Content-Length:</b></td><td> 0</td></tr>
</table><hr noshade><div mini:hint='folded;Raw Request'><h2>Raw request</h2><pre>  0: 47 45 54 20 2f 3f 41 72 72 61 79 26 48 65 6c 6c   GET /?Array&amp;Hell
 10: 6f 20 57 6f 72 6c 64 20 48 54 54 50 2f 31 2e 30   o World HTTP/1.0
 20: 0d 0a 48 6f 73 74 3a 20 65 63 68 6f 2e 6f 70 65   ..Host: echo.ope
 30: 72 61 2e 63 6f 6d 0d 0a 55 73 65 72 2d 41 67 65   ra.com..User-Age
 40: 6e 74 3a 20 47 72 65 69 63 6f 64 65 78 2f 53 65   nt: Greicodex/Se
 50: 72 76 69 63 65 42 75 73 20 31 2e 30 0d 0a 43 6f   rviceBus 1.0..Co
 60: 6e 74 65 6e 74 2d 54 79 70 65 3a 20 61 70 70 6c   ntent-Type: appl
 70: 69 63 61 74 69 6f 6e 2f 78 2d 77 77 77 2d 66 6f   ication/x-www-fo
 80: 72 6d 2d 75 72 6c 65 6e 63 6f 64 65 64 0d 0a 54   rm-urlencoded..T
 90: 69 6d 65 73 74 61 6d 70 3a 20 31 34 32 37 33 32   imestamp: 142732
 a0: 37 39 38 35 0d 0a 43 6f 6e 74 65 6e 74 2d 4c 65   7985..Content-Le
 b0: 6e 67 74 68 3a 20 30 0d 0a 0d 0a                  ngth: 0....
</pre></div><hr noshade><p>Page generated at Thu Mar 26 00:01:14 2015
</p>"
string(8) "Connect!"
string(5) "Data!"
string(7) "End!200"
string(1677) "RECEIVED: <style>body {color: black; background-color: white;} tr:hover { background: yellow }</style><h2>GET /?Array&amp;Hello World HTTP/1.0</h2><h2>Remote: 190.78.219.220 47234</h2><table mini:hint='folded;Headers' border=0 cellpadding=3 cellspacing=0>
<tr><td valign=top><b>Host:</b></td><td> echo.opera.com</td></tr>
<tr><td valign=top><b>User-Agent:</b></td><td> Greicodex/ServiceBus 1.0</td></tr>
<tr><td valign=top><b>Content-Type:</b></td><td> application/x-www-form-urlencoded</td></tr>
<tr><td valign=top><b>Timestamp:</b></td><td> 1427327985</td></tr>
<tr><td valign=top><b>Content-Length:</b></td><td> 0</td></tr>
</table><hr noshade><div mini:hint='folded;Raw Request'><h2>Raw request</h2><pre>  0: 47 45 54 20 2f 3f 41 72 72 61 79 26 48 65 6c 6c   GET /?Array&amp;Hell
 10: 6f 20 57 6f 72 6c 64 20 48 54 54 50 2f 31 2e 30   o World HTTP/1.0
 20: 0d 0a 48 6f 73 74 3a 20 65 63 68 6f 2e 6f 70 65   ..Host: echo.ope
 30: 72 61 2e 63 6f 6d 0d 0a 55 73 65 72 2d 41 67 65   ra.com..User-Age
 40: 6e 74 3a 20 47 72 65 69 63 6f 64 65 78 2f 53 65   nt: Greicodex/Se
 50: 72 76 69 63 65 42 75 73 20 31 2e 30 0d 0a 43 6f   rviceBus 1.0..Co
 60: 6e 74 65 6e 74 2d 54 79 70 65 3a 20 61 70 70 6c   ntent-Type: appl
 70: 69 63 61 74 69 6f 6e 2f 78 2d 77 77 77 2d 66 6f   ication/x-www-fo
 80: 72 6d 2d 75 72 6c 65 6e 63 6f 64 65 64 0d 0a 54   rm-urlencoded..T
 90: 69 6d 65 73 74 61 6d 70 3a 20 31 34 32 37 33 32   imestamp: 142732
 a0: 37 39 38 35 0d 0a 43 6f 6e 74 65 6e 74 2d 4c 65   7985..Content-Le
 b0: 6e 67 74 68 3a 20 30 0d 0a 0d 0a                  ngth: 0....
</pre></div><hr noshade><p>Page generated at Thu Mar 26 00:01:14 2015
</p>
 saved on: /tmp/busQ1EXok.post
"
string(13) "DELIVERIES: 2"
string(5) "Data!"
string(5) "Data!"
string(5) "Data!"
string(5) "Data!"
string(7) "End!200"
string(1639) "<style>body {color: black; background-color: white;} tr:hover { background: yellow }</style><h2>GET /?Array&amp;Goodbye World HTTP/1.0</h2><h2>Remote: 190.78.219.220 47237</h2><table mini:hint='folded;Headers' border=0 cellpadding=3 cellspacing=0>
<tr><td valign=top><b>Host:</b></td><td> echo.opera.com</td></tr>
<tr><td valign=top><b>User-Agent:</b></td><td> Greicodex/ServiceBus 1.0</td></tr>
<tr><td valign=top><b>Content-Type:</b></td><td> application/x-www-form-urlencoded</td></tr>
<tr><td valign=top><b>Timestamp:</b></td><td> 1427327984</td></tr>
<tr><td valign=top><b>Content-Length:</b></td><td> 0</td></tr>
</table><hr noshade><div mini:hint='folded;Raw Request'><h2>Raw request</h2><pre>  0: 47 45 54 20 2f 3f 41 72 72 61 79 26 47 6f 6f 64   GET /?Array&amp;Good
 10: 62 79 65 20 57 6f 72 6c 64 20 48 54 54 50 2f 31   bye World HTTP/1
 20: 2e 30 0d 0a 48 6f 73 74 3a 20 65 63 68 6f 2e 6f   .0..Host: echo.o
 30: 70 65 72 61 2e 63 6f 6d 0d 0a 55 73 65 72 2d 41   pera.com..User-A
 40: 67 65 6e 74 3a 20 47 72 65 69 63 6f 64 65 78 2f   gent: Greicodex/
 50: 53 65 72 76 69 63 65 42 75 73 20 31 2e 30 0d 0a   ServiceBus 1.0..
 60: 43 6f 6e 74 65 6e 74 2d 54 79 70 65 3a 20 61 70   Content-Type: ap
 70: 70 6c 69 63 61 74 69 6f 6e 2f 78 2d 77 77 77 2d   plication/x-www-
 80: 66 6f 72 6d 2d 75 72 6c 65 6e 63 6f 64 65 64 0d   form-urlencoded.
 90: 0a 54 69 6d 65 73 74 61 6d 70 3a 20 31 34 32 37   .Timestamp: 1427
 a0: 33 32 37 39 38 34 0d 0a 43 6f 6e 74 65 6e 74 2d   327984..Content-
 b0: 4c 65 6e 67 74 68 3a 20 30 0d 0a 0d 0a            Length: 0....
</pre></div><hr noshade><p>Page generated at Thu Mar 26 00:01:14 2015
</p>"
string(116) "MessageDispatchGreicodex\ServiceBuz\Processors\HttpProcessor->Greicodex\ServiceBuz\Processors\Consumers\FileConsumer"
string(12) "Process FILE"
string(19) "file:/tmp/bus8IZNM8"
string(116) "MessageDispatchGreicodex\ServiceBuz\Processors\Consumers\FileConsumer->Greicodex\ServiceBuz\Processors\HttpProcessor"
string(12) "Process HTTP"
string(37) "POST http://127.0.0.1/test/poster.php"
array(13) {
  ["Host"]=>
  string(9) "127.0.0.1"
  ["Content-Type"]=>
  string(9) "text/html"
  ["User-Agent"]=>
  string(24) "Greicodex/ServiceBus 1.0"
  ["Vary"]=>
  string(1) "*"
  ["Server"]=>
  string(16) "Roxen/5.4.74-git"
  ["Accept-Ranges"]=>
  string(5) "bytes"
  ["Last-Modified"]=>
  string(29) "Thu, 26 Mar 2015 00:01:14 GMT"
  ["ETag"]=>
  string(34) ""fa051cf578c6916e61d3627944f87b03""
  ["Connection"]=>
  string(5) "close"
  ["Date"]=>
  string(29) "Thu, 26 Mar 2015 00:01:14 GMT"
  ["Expires"]=>
  string(29) "Tue, 25 Mar 2014 18:01:14 GMT"
  ["Content-Length"]=>
  int(1639)
  ["Filename"]=>
  string(14) "/tmp/bus8IZNM8"
}
string(1639) "<style>body {color: black; background-color: white;} tr:hover { background: yellow }</style><h2>GET /?Array&amp;Goodbye World HTTP/1.0</h2><h2>Remote: 190.78.219.220 47237</h2><table mini:hint='folded;Headers' border=0 cellpadding=3 cellspacing=0>
<tr><td valign=top><b>Host:</b></td><td> echo.opera.com</td></tr>
<tr><td valign=top><b>User-Agent:</b></td><td> Greicodex/ServiceBus 1.0</td></tr>
<tr><td valign=top><b>Content-Type:</b></td><td> application/x-www-form-urlencoded</td></tr>
<tr><td valign=top><b>Timestamp:</b></td><td> 1427327984</td></tr>
<tr><td valign=top><b>Content-Length:</b></td><td> 0</td></tr>
</table><hr noshade><div mini:hint='folded;Raw Request'><h2>Raw request</h2><pre>  0: 47 45 54 20 2f 3f 41 72 72 61 79 26 47 6f 6f 64   GET /?Array&amp;Good
 10: 62 79 65 20 57 6f 72 6c 64 20 48 54 54 50 2f 31   bye World HTTP/1
 20: 2e 30 0d 0a 48 6f 73 74 3a 20 65 63 68 6f 2e 6f   .0..Host: echo.o
 30: 70 65 72 61 2e 63 6f 6d 0d 0a 55 73 65 72 2d 41   pera.com..User-A
 40: 67 65 6e 74 3a 20 47 72 65 69 63 6f 64 65 78 2f   gent: Greicodex/
 50: 53 65 72 76 69 63 65 42 75 73 20 31 2e 30 0d 0a   ServiceBus 1.0..
 60: 43 6f 6e 74 65 6e 74 2d 54 79 70 65 3a 20 61 70   Content-Type: ap
 70: 70 6c 69 63 61 74 69 6f 6e 2f 78 2d 77 77 77 2d   plication/x-www-
 80: 66 6f 72 6d 2d 75 72 6c 65 6e 63 6f 64 65 64 0d   form-urlencoded.
 90: 0a 54 69 6d 65 73 74 61 6d 70 3a 20 31 34 32 37   .Timestamp: 1427
 a0: 33 32 37 39 38 34 0d 0a 43 6f 6e 74 65 6e 74 2d   327984..Content-
 b0: 4c 65 6e 67 74 68 3a 20 30 0d 0a 0d 0a            Length: 0....
</pre></div><hr noshade><p>Page generated at Thu Mar 26 00:01:14 2015
</p>"
string(5) "Data!"
string(7) "End!200"
string(1639) "<style>body {color: black; background-color: white;} tr:hover { background: yellow }</style><h2>GET /?Array&amp;Goodbye World HTTP/1.0</h2><h2>Remote: 190.78.219.220 47235</h2><table mini:hint='folded;Headers' border=0 cellpadding=3 cellspacing=0>
<tr><td valign=top><b>Host:</b></td><td> echo.opera.com</td></tr>
<tr><td valign=top><b>User-Agent:</b></td><td> Greicodex/ServiceBus 1.0</td></tr>
<tr><td valign=top><b>Content-Type:</b></td><td> application/x-www-form-urlencoded</td></tr>
<tr><td valign=top><b>Timestamp:</b></td><td> 1427327985</td></tr>
<tr><td valign=top><b>Content-Length:</b></td><td> 0</td></tr>
</table><hr noshade><div mini:hint='folded;Raw Request'><h2>Raw request</h2><pre>  0: 47 45 54 20 2f 3f 41 72 72 61 79 26 47 6f 6f 64   GET /?Array&amp;Good
 10: 62 79 65 20 57 6f 72 6c 64 20 48 54 54 50 2f 31   bye World HTTP/1
 20: 2e 30 0d 0a 48 6f 73 74 3a 20 65 63 68 6f 2e 6f   .0..Host: echo.o
 30: 70 65 72 61 2e 63 6f 6d 0d 0a 55 73 65 72 2d 41   pera.com..User-A
 40: 67 65 6e 74 3a 20 47 72 65 69 63 6f 64 65 78 2f   gent: Greicodex/
 50: 53 65 72 76 69 63 65 42 75 73 20 31 2e 30 0d 0a   ServiceBus 1.0..
 60: 43 6f 6e 74 65 6e 74 2d 54 79 70 65 3a 20 61 70   Content-Type: ap
 70: 70 6c 69 63 61 74 69 6f 6e 2f 78 2d 77 77 77 2d   plication/x-www-
 80: 66 6f 72 6d 2d 75 72 6c 65 6e 63 6f 64 65 64 0d   form-urlencoded.
 90: 0a 54 69 6d 65 73 74 61 6d 70 3a 20 31 34 32 37   .Timestamp: 1427
 a0: 33 32 37 39 38 35 0d 0a 43 6f 6e 74 65 6e 74 2d   327985..Content-
 b0: 4c 65 6e 67 74 68 3a 20 30 0d 0a 0d 0a            Length: 0....
</pre></div><hr noshade><p>Page generated at Thu Mar 26 00:01:14 2015
</p>"
string(116) "MessageDispatchGreicodex\ServiceBuz\Processors\HttpProcessor->Greicodex\ServiceBuz\Processors\Consumers\FileConsumer"
string(12) "Process FILE"
string(19) "file:/tmp/busJSDRaX"
string(8) "Connect!"
string(116) "MessageDispatchGreicodex\ServiceBuz\Processors\Consumers\FileConsumer->Greicodex\ServiceBuz\Processors\HttpProcessor"
string(12) "Process HTTP"
string(37) "POST http://127.0.0.1/test/poster.php"
array(13) {
  ["Host"]=>
  string(9) "127.0.0.1"
  ["Content-Type"]=>
  string(9) "text/html"
  ["User-Agent"]=>
  string(24) "Greicodex/ServiceBus 1.0"
  ["Vary"]=>
  string(1) "*"
  ["Server"]=>
  string(16) "Roxen/5.4.74-git"
  ["Accept-Ranges"]=>
  string(5) "bytes"
  ["Last-Modified"]=>
  string(29) "Thu, 26 Mar 2015 00:01:14 GMT"
  ["ETag"]=>
  string(34) ""0fdb92659a8360dbdc1547fb2f9ff814""
  ["Connection"]=>
  string(5) "close"
  ["Date"]=>
  string(29) "Thu, 26 Mar 2015 00:01:14 GMT"
  ["Expires"]=>
  string(29) "Tue, 25 Mar 2014 18:01:14 GMT"
  ["Content-Length"]=>
  int(1639)
  ["Filename"]=>
  string(14) "/tmp/busJSDRaX"
}
string(1639) "<style>body {color: black; background-color: white;} tr:hover { background: yellow }</style><h2>GET /?Array&amp;Goodbye World HTTP/1.0</h2><h2>Remote: 190.78.219.220 47235</h2><table mini:hint='folded;Headers' border=0 cellpadding=3 cellspacing=0>
<tr><td valign=top><b>Host:</b></td><td> echo.opera.com</td></tr>
<tr><td valign=top><b>User-Agent:</b></td><td> Greicodex/ServiceBus 1.0</td></tr>
<tr><td valign=top><b>Content-Type:</b></td><td> application/x-www-form-urlencoded</td></tr>
<tr><td valign=top><b>Timestamp:</b></td><td> 1427327985</td></tr>
<tr><td valign=top><b>Content-Length:</b></td><td> 0</td></tr>
</table><hr noshade><div mini:hint='folded;Raw Request'><h2>Raw request</h2><pre>  0: 47 45 54 20 2f 3f 41 72 72 61 79 26 47 6f 6f 64   GET /?Array&amp;Good
 10: 62 79 65 20 57 6f 72 6c 64 20 48 54 54 50 2f 31   bye World HTTP/1
 20: 2e 30 0d 0a 48 6f 73 74 3a 20 65 63 68 6f 2e 6f   .0..Host: echo.o
 30: 70 65 72 61 2e 63 6f 6d 0d 0a 55 73 65 72 2d 41   pera.com..User-A
 40: 67 65 6e 74 3a 20 47 72 65 69 63 6f 64 65 78 2f   gent: Greicodex/
 50: 53 65 72 76 69 63 65 42 75 73 20 31 2e 30 0d 0a   ServiceBus 1.0..
 60: 43 6f 6e 74 65 6e 74 2d 54 79 70 65 3a 20 61 70   Content-Type: ap
 70: 70 6c 69 63 61 74 69 6f 6e 2f 78 2d 77 77 77 2d   plication/x-www-
 80: 66 6f 72 6d 2d 75 72 6c 65 6e 63 6f 64 65 64 0d   form-urlencoded.
 90: 0a 54 69 6d 65 73 74 61 6d 70 3a 20 31 34 32 37   .Timestamp: 1427
 a0: 33 32 37 39 38 35 0d 0a 43 6f 6e 74 65 6e 74 2d   327985..Content-
 b0: 4c 65 6e 67 74 68 3a 20 30 0d 0a 0d 0a            Length: 0....
</pre></div><hr noshade><p>Page generated at Thu Mar 26 00:01:14 2015
</p>"
string(8) "Connect!"
string(5) "Data!"
string(7) "End!200"
string(1681) "RECEIVED: <style>body {color: black; background-color: white;} tr:hover { background: yellow }</style><h2>GET /?Array&amp;Goodbye World HTTP/1.0</h2><h2>Remote: 190.78.219.220 47237</h2><table mini:hint='folded;Headers' border=0 cellpadding=3 cellspacing=0>
<tr><td valign=top><b>Host:</b></td><td> echo.opera.com</td></tr>
<tr><td valign=top><b>User-Agent:</b></td><td> Greicodex/ServiceBus 1.0</td></tr>
<tr><td valign=top><b>Content-Type:</b></td><td> application/x-www-form-urlencoded</td></tr>
<tr><td valign=top><b>Timestamp:</b></td><td> 1427327984</td></tr>
<tr><td valign=top><b>Content-Length:</b></td><td> 0</td></tr>
</table><hr noshade><div mini:hint='folded;Raw Request'><h2>Raw request</h2><pre>  0: 47 45 54 20 2f 3f 41 72 72 61 79 26 47 6f 6f 64   GET /?Array&amp;Good
 10: 62 79 65 20 57 6f 72 6c 64 20 48 54 54 50 2f 31   bye World HTTP/1
 20: 2e 30 0d 0a 48 6f 73 74 3a 20 65 63 68 6f 2e 6f   .0..Host: echo.o
 30: 70 65 72 61 2e 63 6f 6d 0d 0a 55 73 65 72 2d 41   pera.com..User-A
 40: 67 65 6e 74 3a 20 47 72 65 69 63 6f 64 65 78 2f   gent: Greicodex/
 50: 53 65 72 76 69 63 65 42 75 73 20 31 2e 30 0d 0a   ServiceBus 1.0..
 60: 43 6f 6e 74 65 6e 74 2d 54 79 70 65 3a 20 61 70   Content-Type: ap
 70: 70 6c 69 63 61 74 69 6f 6e 2f 78 2d 77 77 77 2d   plication/x-www-
 80: 66 6f 72 6d 2d 75 72 6c 65 6e 63 6f 64 65 64 0d   form-urlencoded.
 90: 0a 54 69 6d 65 73 74 61 6d 70 3a 20 31 34 32 37   .Timestamp: 1427
 a0: 33 32 37 39 38 34 0d 0a 43 6f 6e 74 65 6e 74 2d   327984..Content-
 b0: 4c 65 6e 67 74 68 3a 20 30 0d 0a 0d 0a            Length: 0....
</pre></div><hr noshade><p>Page generated at Thu Mar 26 00:01:14 2015
</p>
 saved on: /tmp/bus8IZNM8.post
"
string(13) "DELIVERIES: 2"
string(5) "Data!"
string(7) "End!200"
string(1681) "RECEIVED: <style>body {color: black; background-color: white;} tr:hover { background: yellow }</style><h2>GET /?Array&amp;Goodbye World HTTP/1.0</h2><h2>Remote: 190.78.219.220 47235</h2><table mini:hint='folded;Headers' border=0 cellpadding=3 cellspacing=0>
<tr><td valign=top><b>Host:</b></td><td> echo.opera.com</td></tr>
<tr><td valign=top><b>User-Agent:</b></td><td> Greicodex/ServiceBus 1.0</td></tr>
<tr><td valign=top><b>Content-Type:</b></td><td> application/x-www-form-urlencoded</td></tr>
<tr><td valign=top><b>Timestamp:</b></td><td> 1427327985</td></tr>
<tr><td valign=top><b>Content-Length:</b></td><td> 0</td></tr>
</table><hr noshade><div mini:hint='folded;Raw Request'><h2>Raw request</h2><pre>  0: 47 45 54 20 2f 3f 41 72 72 61 79 26 47 6f 6f 64   GET /?Array&amp;Good
 10: 62 79 65 20 57 6f 72 6c 64 20 48 54 54 50 2f 31   bye World HTTP/1
 20: 2e 30 0d 0a 48 6f 73 74 3a 20 65 63 68 6f 2e 6f   .0..Host: echo.o
 30: 70 65 72 61 2e 63 6f 6d 0d 0a 55 73 65 72 2d 41   pera.com..User-A
 40: 67 65 6e 74 3a 20 47 72 65 69 63 6f 64 65 78 2f   gent: Greicodex/
 50: 53 65 72 76 69 63 65 42 75 73 20 31 2e 30 0d 0a   ServiceBus 1.0..
 60: 43 6f 6e 74 65 6e 74 2d 54 79 70 65 3a 20 61 70   Content-Type: ap
 70: 70 6c 69 63 61 74 69 6f 6e 2f 78 2d 77 77 77 2d   plication/x-www-
 80: 66 6f 72 6d 2d 75 72 6c 65 6e 63 6f 64 65 64 0d   form-urlencoded.
 90: 0a 54 69 6d 65 73 74 61 6d 70 3a 20 31 34 32 37   .Timestamp: 1427
 a0: 33 32 37 39 38 35 0d 0a 43 6f 6e 74 65 6e 74 2d   327985..Content-
 b0: 4c 65 6e 67 74 68 3a 20 30 0d 0a 0d 0a            Length: 0....
</pre></div><hr noshade><p>Page generated at Thu Mar 26 00:01:14 2015
</p>
 saved on: /tmp/busJSDRaX.post
"
string(13) "DELIVERIES: 3"
string(5) "Data!"
string(5) "Data!"
string(7) "End!200"
string(1635) "<style>body {color: black; background-color: white;} tr:hover { background: yellow }</style><h2>GET /?Array&amp;Hello World HTTP/1.0</h2><h2>Remote: 190.78.219.220 47236</h2><table mini:hint='folded;Headers' border=0 cellpadding=3 cellspacing=0>
<tr><td valign=top><b>Host:</b></td><td> echo.opera.com</td></tr>
<tr><td valign=top><b>User-Agent:</b></td><td> Greicodex/ServiceBus 1.0</td></tr>
<tr><td valign=top><b>Content-Type:</b></td><td> application/x-www-form-urlencoded</td></tr>
<tr><td valign=top><b>Timestamp:</b></td><td> 1427327984</td></tr>
<tr><td valign=top><b>Content-Length:</b></td><td> 0</td></tr>
</table><hr noshade><div mini:hint='folded;Raw Request'><h2>Raw request</h2><pre>  0: 47 45 54 20 2f 3f 41 72 72 61 79 26 48 65 6c 6c   GET /?Array&amp;Hell
 10: 6f 20 57 6f 72 6c 64 20 48 54 54 50 2f 31 2e 30   o World HTTP/1.0
 20: 0d 0a 48 6f 73 74 3a 20 65 63 68 6f 2e 6f 70 65   ..Host: echo.ope
 30: 72 61 2e 63 6f 6d 0d 0a 55 73 65 72 2d 41 67 65   ra.com..User-Age
 40: 6e 74 3a 20 47 72 65 69 63 6f 64 65 78 2f 53 65   nt: Greicodex/Se
 50: 72 76 69 63 65 42 75 73 20 31 2e 30 0d 0a 43 6f   rviceBus 1.0..Co
 60: 6e 74 65 6e 74 2d 54 79 70 65 3a 20 61 70 70 6c   ntent-Type: appl
 70: 69 63 61 74 69 6f 6e 2f 78 2d 77 77 77 2d 66 6f   ication/x-www-fo
 80: 72 6d 2d 75 72 6c 65 6e 63 6f 64 65 64 0d 0a 54   rm-urlencoded..T
 90: 69 6d 65 73 74 61 6d 70 3a 20 31 34 32 37 33 32   imestamp: 142732
 a0: 37 39 38 34 0d 0a 43 6f 6e 74 65 6e 74 2d 4c 65   7984..Content-Le
 b0: 6e 67 74 68 3a 20 30 0d 0a 0d 0a                  ngth: 0....
</pre></div><hr noshade><p>Page generated at Thu Mar 26 00:01:14 2015
</p>"
string(116) "MessageDispatchGreicodex\ServiceBuz\Processors\HttpProcessor->Greicodex\ServiceBuz\Processors\Consumers\FileConsumer"
string(12) "Process FILE"
string(19) "file:/tmp/busWV5ZzL"
string(116) "MessageDispatchGreicodex\ServiceBuz\Processors\Consumers\FileConsumer->Greicodex\ServiceBuz\Processors\HttpProcessor"
string(12) "Process HTTP"
string(37) "POST http://127.0.0.1/test/poster.php"
array(13) {
  ["Host"]=>
  string(9) "127.0.0.1"
  ["Content-Type"]=>
  string(9) "text/html"
  ["User-Agent"]=>
  string(24) "Greicodex/ServiceBus 1.0"
  ["Vary"]=>
  string(1) "*"
  ["Server"]=>
  string(16) "Roxen/5.4.74-git"
  ["Accept-Ranges"]=>
  string(5) "bytes"
  ["Last-Modified"]=>
  string(29) "Thu, 26 Mar 2015 00:01:14 GMT"
  ["ETag"]=>
  string(34) ""80e7151260bbbaac1ccb4e1e9b9e4e25""
  ["Connection"]=>
  string(5) "close"
  ["Date"]=>
  string(29) "Thu, 26 Mar 2015 00:01:14 GMT"
  ["Expires"]=>
  string(29) "Tue, 25 Mar 2014 18:01:14 GMT"
  ["Content-Length"]=>
  int(1635)
  ["Filename"]=>
  string(14) "/tmp/busWV5ZzL"
}
string(1635) "<style>body {color: black; background-color: white;} tr:hover { background: yellow }</style><h2>GET /?Array&amp;Hello World HTTP/1.0</h2><h2>Remote: 190.78.219.220 47236</h2><table mini:hint='folded;Headers' border=0 cellpadding=3 cellspacing=0>
<tr><td valign=top><b>Host:</b></td><td> echo.opera.com</td></tr>
<tr><td valign=top><b>User-Agent:</b></td><td> Greicodex/ServiceBus 1.0</td></tr>
<tr><td valign=top><b>Content-Type:</b></td><td> application/x-www-form-urlencoded</td></tr>
<tr><td valign=top><b>Timestamp:</b></td><td> 1427327984</td></tr>
<tr><td valign=top><b>Content-Length:</b></td><td> 0</td></tr>
</table><hr noshade><div mini:hint='folded;Raw Request'><h2>Raw request</h2><pre>  0: 47 45 54 20 2f 3f 41 72 72 61 79 26 48 65 6c 6c   GET /?Array&amp;Hell
 10: 6f 20 57 6f 72 6c 64 20 48 54 54 50 2f 31 2e 30   o World HTTP/1.0
 20: 0d 0a 48 6f 73 74 3a 20 65 63 68 6f 2e 6f 70 65   ..Host: echo.ope
 30: 72 61 2e 63 6f 6d 0d 0a 55 73 65 72 2d 41 67 65   ra.com..User-Age
 40: 6e 74 3a 20 47 72 65 69 63 6f 64 65 78 2f 53 65   nt: Greicodex/Se
 50: 72 76 69 63 65 42 75 73 20 31 2e 30 0d 0a 43 6f   rviceBus 1.0..Co
 60: 6e 74 65 6e 74 2d 54 79 70 65 3a 20 61 70 70 6c   ntent-Type: appl
 70: 69 63 61 74 69 6f 6e 2f 78 2d 77 77 77 2d 66 6f   ication/x-www-fo
 80: 72 6d 2d 75 72 6c 65 6e 63 6f 64 65 64 0d 0a 54   rm-urlencoded..T
 90: 69 6d 65 73 74 61 6d 70 3a 20 31 34 32 37 33 32   imestamp: 142732
 a0: 37 39 38 34 0d 0a 43 6f 6e 74 65 6e 74 2d 4c 65   7984..Content-Le
 b0: 6e 67 74 68 3a 20 30 0d 0a 0d 0a                  ngth: 0....
</pre></div><hr noshade><p>Page generated at Thu Mar 26 00:01:14 2015
</p>"
string(8) "Connect!"
string(5) "Data!"
string(7) "End!200"
string(1677) "RECEIVED: <style>body {color: black; background-color: white;} tr:hover { background: yellow }</style><h2>GET /?Array&amp;Hello World HTTP/1.0</h2><h2>Remote: 190.78.219.220 47236</h2><table mini:hint='folded;Headers' border=0 cellpadding=3 cellspacing=0>
<tr><td valign=top><b>Host:</b></td><td> echo.opera.com</td></tr>
<tr><td valign=top><b>User-Agent:</b></td><td> Greicodex/ServiceBus 1.0</td></tr>
<tr><td valign=top><b>Content-Type:</b></td><td> application/x-www-form-urlencoded</td></tr>
<tr><td valign=top><b>Timestamp:</b></td><td> 1427327984</td></tr>
<tr><td valign=top><b>Content-Length:</b></td><td> 0</td></tr>
</table><hr noshade><div mini:hint='folded;Raw Request'><h2>Raw request</h2><pre>  0: 47 45 54 20 2f 3f 41 72 72 61 79 26 48 65 6c 6c   GET /?Array&amp;Hell
 10: 6f 20 57 6f 72 6c 64 20 48 54 54 50 2f 31 2e 30   o World HTTP/1.0
 20: 0d 0a 48 6f 73 74 3a 20 65 63 68 6f 2e 6f 70 65   ..Host: echo.ope
 30: 72 61 2e 63 6f 6d 0d 0a 55 73 65 72 2d 41 67 65   ra.com..User-Age
 40: 6e 74 3a 20 47 72 65 69 63 6f 64 65 78 2f 53 65   nt: Greicodex/Se
 50: 72 76 69 63 65 42 75 73 20 31 2e 30 0d 0a 43 6f   rviceBus 1.0..Co
 60: 6e 74 65 6e 74 2d 54 79 70 65 3a 20 61 70 70 6c   ntent-Type: appl
 70: 69 63 61 74 69 6f 6e 2f 78 2d 77 77 77 2d 66 6f   ication/x-www-fo
 80: 72 6d 2d 75 72 6c 65 6e 63 6f 64 65 64 0d 0a 54   rm-urlencoded..T
 90: 69 6d 65 73 74 61 6d 70 3a 20 31 34 32 37 33 32   imestamp: 142732
 a0: 37 39 38 34 0d 0a 43 6f 6e 74 65 6e 74 2d 4c 65   7984..Content-Le
 b0: 6e 67 74 68 3a 20 30 0d 0a 0d 0a                  ngth: 0....
</pre></div><hr noshade><p>Page generated at Thu Mar 26 00:01:14 2015
</p>
 saved on: /tmp/busWV5ZzL.post
"
string(13) "DELIVERIES: 3"
string(5) "Data!"
string(5) "Data!"
string(7) "End!200"
string(1639) "<style>body {color: black; background-color: white;} tr:hover { background: yellow }</style><h2>GET /?Array&amp;Goodbye World HTTP/1.0</h2><h2>Remote: 190.78.219.220 47238</h2><table mini:hint='folded;Headers' border=0 cellpadding=3 cellspacing=0>
<tr><td valign=top><b>Host:</b></td><td> echo.opera.com</td></tr>
<tr><td valign=top><b>User-Agent:</b></td><td> Greicodex/ServiceBus 1.0</td></tr>
<tr><td valign=top><b>Content-Type:</b></td><td> application/x-www-form-urlencoded</td></tr>
<tr><td valign=top><b>Timestamp:</b></td><td> 1427327984</td></tr>
<tr><td valign=top><b>Content-Length:</b></td><td> 0</td></tr>
</table><hr noshade><div mini:hint='folded;Raw Request'><h2>Raw request</h2><pre>  0: 47 45 54 20 2f 3f 41 72 72 61 79 26 47 6f 6f 64   GET /?Array&amp;Good
 10: 62 79 65 20 57 6f 72 6c 64 20 48 54 54 50 2f 31   bye World HTTP/1
 20: 2e 30 0d 0a 48 6f 73 74 3a 20 65 63 68 6f 2e 6f   .0..Host: echo.o
 30: 70 65 72 61 2e 63 6f 6d 0d 0a 55 73 65 72 2d 41   pera.com..User-A
 40: 67 65 6e 74 3a 20 47 72 65 69 63 6f 64 65 78 2f   gent: Greicodex/
 50: 53 65 72 76 69 63 65 42 75 73 20 31 2e 30 0d 0a   ServiceBus 1.0..
 60: 43 6f 6e 74 65 6e 74 2d 54 79 70 65 3a 20 61 70   Content-Type: ap
 70: 70 6c 69 63 61 74 69 6f 6e 2f 78 2d 77 77 77 2d   plication/x-www-
 80: 66 6f 72 6d 2d 75 72 6c 65 6e 63 6f 64 65 64 0d   form-urlencoded.
